
**** 10/26/25 01:09:53 *** PSpice 23.1.0 (29 September 2023) ** ID# 0 ********

 ** Profile: "SCHEMATIC1-tl431"  [ C:\Users\shustrik\Documents\Altium\Xenon_flash\моделирование обратной связи\tl431_obr_svyaz'-PSpic


 ****     CIRCUIT DESCRIPTION


******************************************************************************




** Creating circuit file "tl431.cir" 
** WARNING: THIS AUTOMATICALLY GENERATED FILE MAY BE OVERWRITTEN BY SUBSEQUENT SIMULATIONS

*Libraries: 
* Profile Libraries :
* Local Libraries :
* From [PSPICE NETLIST] section of C:\Users\shustrik\AppData\Roaming\SPB_Data\cdssetup\OrCAD_PSpice\23.1.0\PSpice.ini file:
.lib "nom.lib" 

*Analysis directives: 
.TRAN  0 1ms 0 10u 
.OPTIONS ADVCONV
.PROBE64 V(alias(*)) I(alias(*)) W(alias(*)) D(alias(*)) NOISE(alias(*)) 
.INC "..\SCHEMATIC1.net" 



**** INCLUDING SCHEMATIC1.net ****
* source TL431_OBR_SVYAZ'
R_R1         N143181 +300  10k TC=0,0 
R_R2         N143341 N143181  10k TC=0,0 
R_R3         N14734 N143341  10k TC=0,0 
R_R4         0 N14734  3.3k TC=0,0 
R_R5         N14460 N14734  430k TC=0,0 
R_R6         0 N14460  47k TC=0,0 
R_R7         N14825 N14734  18k TC=0,0 
R_R8         0 N14763  620 TC=0,0 
R_R9         N14763 +15  36k TC=0,0 
V_V1         +15 0 15Vdc
V_V2         +300 0 300
X_U1         N14825 N14869 +15 N14763 PS2501 PARAMS: REL_CTR=1
X_U2         0 N14460 N14869 awbtl431

**** RESUMING tl431.cir ****
.END

**** 10/26/25 01:09:53 *** PSpice 23.1.0 (29 September 2023) ** ID# 0 ********

 ** Profile: "SCHEMATIC1-tl431"  [ C:\Users\shustrik\Documents\Altium\Xenon_flash\моделирование обратной связи\tl431_obr_svyaz'-PSpic


 ****     Diode MODEL PARAMETERS


******************************************************************************




               X_U1.Demit      X_U2.M1MD431    X_U2.M2MZ2_5    X_U2.M4MID      
          IS    1.000000E-12  100.000000E-15    1.000000E-12    1.000000E-09 
           N    1.999644                        1.55                         
          BV    6              37               2.74                         
         IBV   10.000000E-06                     .02                         
          RS                    1.000000E-03     .5              .1          
          TT  500.000000E-09    1.000000E-09    1.000000E-09    1.000000E-09 
         CJO   50.000000E-12                   18.000000E-12                 
          VJ                                     .7                          
           M                                     .4                          
          FC                                     .5                          
          EG    1.424                                                        


**** 10/26/25 01:09:53 *** PSpice 23.1.0 (29 September 2023) ** ID# 0 ********

 ** Profile: "SCHEMATIC1-tl431"  [ C:\Users\shustrik\Documents\Altium\Xenon_flash\моделирование обратной связи\tl431_obr_svyaz'-PSpic


 ****     BJT MODEL PARAMETERS


******************************************************************************




               X_U1.Qdtect     X_U2.M3MQ431    
               NPN             NPN             
       LEVEL    1               1            
          IS  100.000000E-12  100.000000E-18 
          BF  100             500            
          NF    1.3             1            
         VAF  100                            
          BR   50               1            
          NR    1               1            
         ISS    0               0            
          RB                  200            
          RE    0               3            
          RC    0              10            
         CJE   10.000000E-12   10.000000E-12 
         VJE     .75             .75         
         CJC   10.000000E-12  200.000000E-12 
         VJC     .75             .75         
         MJC     .33             .33         
        XCJC    1               1            
         CJS    1.000000E-12    0            
         VJS     .75             .75         
          TF  100.000000E-12                 
          TR  220.000000E-09                 
          KF    0               0            
          AF    1               1            
          CN    2.42            2.42         
           D     .87             .87         


**** 10/26/25 01:09:53 *** PSpice 23.1.0 (29 September 2023) ** ID# 0 ********

 ** Profile: "SCHEMATIC1-tl431"  [ C:\Users\shustrik\Documents\Altium\Xenon_flash\моделирование обратной связи\tl431_obr_svyaz'-PSpic


 ****     INITIAL TRANSIENT SOLUTION       TEMPERATURE =   27.000 DEG C


******************************************************************************



 NODE   VOLTAGE     NODE   VOLTAGE     NODE   VOLTAGE     NODE   VOLTAGE


(  +15)   15.0000  ( +300)  300.0000  (N14460)    2.5003 (N14734)   26.1470     

(N14763)    1.8256 (N14825)    5.4471 (N14869)    4.3681 (X_U1.B)    2.3951     

(X_U1.D)    4.3681 (X_U1.R)     .0012 (X_U1.T)     .0012 (X_U2.1)   10.6900     

(X_U2.3)   20.0000 (X_U2.5)   10.6900 (X_U2.8)    1.0000 (X_U2.9)    2.4990     

(N143181)  208.7200                   (N143341)  117.4300                       

(X_U2.10)    1.7817                   




    VOLTAGE SOURCE CURRENTS
    NAME         CURRENT

    V_V1        -2.944E-03
    V_V2        -9.128E-03
    X_U1.Vsense   1.150E-03
    X_U2.VV61    1.152E-03
    X_U2.VV68   -1.009E-09

    TOTAL POWER DISSIPATION   2.78E+00  WATTS



          JOB CONCLUDED

**** 10/26/25 01:09:53 *** PSpice 23.1.0 (29 September 2023) ** ID# 0 ********

 ** Profile: "SCHEMATIC1-tl431"  [ C:\Users\shustrik\Documents\Altium\Xenon_flash\моделирование обратной связи\tl431_obr_svyaz'-PSpic


 ****     JOB STATISTICS SUMMARY


******************************************************************************



  Total job time (using Solver 1)   =         .02
